<Qucs Dataset 0.0.19>
<indep frequency 9>
  +2.10000000000000000000e+09
  +2.15000000000000000000e+09
  +2.20000000000000000000e+09
  +2.25000000000000000000e+09
  +2.30000000000000000000e+09
  +2.35000000000000000000e+09
  +2.40000000000000000000e+09
  +2.45000000000000000000e+09
  +2.50000000000000000000e+09
</indep>
<dep RP[1,1] frequency>
  -4.21634256324715073205e-01
  -4.47551395756203618248e-01
  -4.68784611300880560414e-01
  -4.86156773293406341274e-01
  -5.00325488885668190342e-01
  -5.11822617709188354418e-01
  -5.21087658953004462248e-01
  -5.28502167255296861903e-01
  -5.34430288331468550389e-01
</dep>
<dep RP[1,2] frequency>
  +2.31836473083904467951e-02
  +1.56766552064525749310e-02
  +9.00329484447948136250e-03
  +3.65263940765740962452e-03
  -5.53494532671977568228e-05
  -1.91998558673350675288e-03
  -1.83553272166663006271e-03
  +2.14813425664379508556e-04
  +4.15246923085595825986e-03
</dep>
<dep RP[1,3] frequency>
  +1.37783718831791766879e-02
  +1.10111557969587887940e-02
  +7.73342741494232807642e-03
  +4.01694856963988409376e-03
  -8.36073333232226212353e-05
  -4.52407508082534014215e-03
  -9.26293106182050213215e-03
  -1.42515344963689422064e-02
  -1.94212030409399577513e-02
</dep>
<dep RP[1,4] frequency>
  +7.24454371514531014764e-02
  +5.70077071649246341911e-02
  +4.00315413960448118758e-02
  +2.10111817177420813485e-02
  -4.71196848185063965619e-04
  -2.47347753312402683645e-02
  -5.19857221831465446393e-02
  -8.22881931680043421373e-02
  -1.15517376116113179574e-01
</dep>
<dep RP[1,5] frequency>
  -1.87919712738688238218e-01
  -2.09913602482466515875e-01
  -2.28118899312008377445e-01
  -2.41715534285079386434e-01
  -2.50085227083155836603e-01
  -2.52754532544369858726e-01
  -2.49380237727820641691e-01
  -2.39770012353581252196e-01
  -2.23924454327719235636e-01
</dep>
<dep RP[1,6] frequency>
  -1.18748605675336404985e-01
  -1.56992803884234061185e-01
  -1.91804450884804689181e-01
  -2.23026417618258698816e-01
  -2.50500551443455454770e-01
  -2.74085043264544858665e-01
  -2.93673334966162158377e-01
  -3.09199366482866333516e-01
  -3.20614282681392692709e-01
</dep>
<dep RP[1,7] frequency>
  -1.82729274758107823606e-01
  -2.03313754149300585095e-01
  -2.21105523144954907444e-01
  -2.36623645477877203591e-01
  -2.50250354078175196726e-01
  -2.62272113195478606684e-01
  -2.72912101696139053342e-01
  -2.82355733411584708392e-01
  -2.90767191476764275126e-01
</dep>
<dep RP[1,8] frequency>
  +1.82530261636633966971e-01
  +2.08657266554478804110e-01
  +2.28724434561574430091e-01
  +2.42602123219175264124e-01
  +2.50057192673366956992e-01
  +2.50777261425883857271e-01
  +2.44406776662939750899e-01
  +2.30593160988424694668e-01
  +2.09039015735363042925e-01
</dep>
<dep RP[2,1] frequency>
  +2.31836473083904329173e-02
  +1.56766552064525818699e-02
  +9.00329484447948136250e-03
  +3.65263940765742783912e-03
  -5.53494532671838790350e-05
  -1.91998558673349027301e-03
  -1.83553272166664394049e-03
  +2.14813425664377990673e-04
  +4.15246923085597213765e-03
</dep>
<dep RP[2,2] frequency>
  +2.68849148308595575774e-01
  +2.32034225733641824574e-01
  +2.04847478379303032936e-01
  +1.83869457073652209367e-01
  +1.66317029090635670752e-01
  +1.50203054143853542701e-01
  +1.34435634069591025685e-01
  +1.18917571945664754529e-01
  +1.04655682205450323297e-01
</dep>
<dep RP[2,3] frequency>
  +1.12671476715867524554e-01
  +8.11014360376919596352e-02
  +5.11498115546272502652e-02
  +2.38101470467044495916e-02
  -4.70040127901624749107e-04
  -2.16714232032815812268e-02
  -4.01556433553927061286e-02
  -5.66684592067732140208e-02
  -7.23689240232025521316e-02
</dep>
<dep RP[2,4] frequency>
  -3.10650587250806096973e-02
  -2.16555684773107465224e-02
  -1.24022001945505444542e-02
  -4.80650537766848066912e-03
  +6.43318044497021013228e-05
  +1.54768453320730677535e-03
  -6.39296863804539317044e-04
  -6.41004547467458832971e-03
  -1.52998860434922639984e-02
</dep>
<dep RP[2,5] frequency>
  -4.19115857857260687425e-01
  -4.80133090978192400566e-01
  -5.27088057707820856201e-01
  -5.61234978198791201187e-01
  -5.83665355752720382831e-01
  -5.95173775609233679518e-01
  -5.96165703178157979636e-01
  -5.86583698323674407327e-01
  -5.65864510860413338911e-01
</dep>
<dep RP[2,6] frequency>
  +1.89894942960402213217e-01
  +2.15251794077926522641e-01
  +2.33287563615812820750e-01
  +2.44641231128381847482e-01
  +2.50079777400520897324e-01
  +2.50368771962737379777e-01
  +2.46175980424510998379e-01
  +2.37966154604378671289e-01
  +2.25863899698560965934e-01
</dep>
<dep RP[2,7] frequency>
  -2.14606648151190293472e-01
  -2.35788470981884407118e-01
  -2.47747096770179336955e-01
  -2.51883838413495486641e-01
  -2.49940710235876079048e-01
  -2.43802474801446455999e-01
  -2.35342052576212018566e-01
  -2.26262514288820437702e-01
  -2.17911194443383415820e-01
</dep>
<dep RP[2,8] frequency>
  -3.76775064320439612153e-01
  -4.49860495950720917779e-01
  -5.08678898595032458196e-01
  -5.53416953844472647717e-01
  -5.83785234220994930787e-01
  -5.98977552965520576578e-01
  -5.97796664896351637175e-01
  -5.78880719193062942551e-01
  -5.41011423986947681541e-01
</dep>
<dep RP[3,1] frequency>
  +1.37783718831791853615e-02
  +1.10111557969587922634e-02
  +7.73342741494232460697e-03
  +4.01694856963988322640e-03
  -8.36073333232434379170e-05
  -4.52407508082534881577e-03
  -9.26293106182050213215e-03
  -1.42515344963689456759e-02
  -1.94212030409399716291e-02
</dep>
<dep RP[3,2] frequency>
  +1.12671476715867524554e-01
  +8.11014360376920151463e-02
  +5.11498115546272502652e-02
  +2.38101470467044495916e-02
  -4.70040127901603932425e-04
  -2.16714232032815812268e-02
  -4.01556433553927061286e-02
  -5.66684592067732140208e-02
  -7.23689240232025937649e-02
</dep>
<dep RP[3,3] frequency>
  -3.81117747698908715392e-01
  -4.10612814260608527395e-01
  -4.40556206311736697767e-01
  -4.70654436207855908503e-01
  -5.00660019321330085340e-01
  -5.30314638317022524205e-01
  -5.59288705909961048057e-01
  -5.87127253709757712663e-01
  -6.13210130293933564083e-01
</dep>
<dep RP[3,4] frequency>
  +2.62221356221187702762e-02
  +1.74701250698708621112e-02
  +9.83679727319788921314e-03
  +3.86562420316878627841e-03
  -5.52625752837099248893e-05
  -1.68395096988568091292e-03
  -9.38075735112675612726e-04
  +2.08064707854524726799e-03
  +7.05793430425848827836e-03
</dep>
<dep RP[3,5] frequency>
  +2.35904665828951976003e-01
  +2.44662743745053035127e-01
  +2.49580018507353729174e-01
  +2.51271576269489149702e-01
  +2.49918637556016454138e-01
  +2.45362214716913662471e-01
  +2.37173814810787919605e-01
  +2.24714213845594784624e-01
  +2.07192801272128079848e-01
</dep>
<dep RP[3,6] frequency>
  +5.80052087615883990579e-02
  +1.16299234468713333368e-01
  +1.68082938313851099066e-01
  +2.12972781664334587237e-01
  +2.50666949233482372339e-01
  +2.80982423855025031934e-01
  +3.03918140917271095702e-01
  +3.19732312149467789997e-01
  +3.29018709516640361912e-01
</dep>
<dep RP[3,7] frequency>
  -1.18344875498315613149e-01
  -1.59688318595033379443e-01
  -1.95735028431519186842e-01
  -2.26085116208512904024e-01
  -2.50416528012247341373e-01
  -2.68478538715553882721e-01
  -2.80114869887272799343e-01
  -2.85315104575367073370e-01
  -2.84288993864595662675e-01
</dep>
<dep RP[3,8] frequency>
  +2.14613708708011913240e-01
  +2.33671034576139413641e-01
  +2.45646012897777293871e-01
  +2.51012890362824259149e-01
  +2.49890144202893127456e-01
  +2.42157395559692845133e-01
  +2.27573290405099354361e-01
  +2.05895953535918774246e-01
  +1.77017412412073554817e-01
</dep>
<dep RP[4,1] frequency>
  +7.24454371514530598430e-02
  +5.70077071649246758245e-02
  +4.00315413960447771813e-02
  +2.10111817177421437985e-02
  -4.71196848185063965619e-04
  -2.47347753312402683645e-02
  -5.19857221831465030060e-02
  -8.22881931680043282595e-02
  -1.15517376116113151818e-01
</dep>
<dep RP[4,2] frequency>
  -3.10650587250805923500e-02
  -2.16555684773107395835e-02
  -1.24022001945505583320e-02
  -4.80650537766848240384e-03
  +6.43318044497853680497e-05
  +1.54768453320737854953e-03
  -6.39296863804567072620e-04
  -6.41004547467456144150e-03
  -1.52998860434922501206e-02
</dep>
<dep RP[4,3] frequency>
  +2.62221356221187737456e-02
  +1.74701250698708621112e-02
  +9.83679727319788227424e-03
  +3.86562420316878801313e-03
  -5.52625752837238026771e-05
  -1.68395096988570129592e-03
  -9.38075735112668673832e-04
  +2.08064707854523946173e-03
  +7.05793430425846746168e-03
</dep>
<dep RP[4,4] frequency>
  +2.74394014154529686245e-01
  +2.52685997446164045677e-01
  +2.25745699083218148706e-01
  +1.96185161998890661428e-01
  +1.66057071737395922639e-01
  +1.36874919389965959970e-01
  +1.09706032552259497015e-01
  +8.52727591056876566000e-02
  +6.40165810249798128417e-02
</dep>
<dep RP[4,5] frequency>
  +3.38138730046764923731e-01
  +4.30351552309700902121e-01
  +5.04161441535486143373e-01
  +5.55863326610568475594e-01
  +5.83644258041710495277e-01
  +5.87409512071102812847e-01
  +5.68502048139044369179e-01
  +5.29372065779350919890e-01
  +4.73239344917863236084e-01
</dep>
<dep RP[4,6] frequency>
  -1.72246512205423335518e-01
  -1.94470988461973248729e-01
  -2.16321430846828643979e-01
  -2.35723483280103285331e-01
  -2.50246413517332622067e-01
  -2.57378841611879294327e-01
  -2.54842211336912538577e-01
  -2.40919702574517252680e-01
  -2.14775395231605908952e-01
</dep>
<dep RP[4,7] frequency>
  -2.01002917649989037985e-01
  -2.19369332413961309891e-01
  -2.33660020524831368860e-01
  -2.43903794021110342793e-01
  -2.50107807029776640917e-01
  -2.52273822471709097126e-01
  -2.50396790601942365040e-01
  -2.44448434149619087119e-01
  -2.34357599586040493689e-01
</dep>
<dep RP[4,8] frequency>
  -3.09096082575350428190e-01
  -4.10014940624094936794e-01
  -4.91054763795822024619e-01
  -5.49527777799346139886e-01
  -5.83764782471343446346e-01
  -5.93068659455743718567e-01
  -5.77576937917946064971e-01
  -5.38073955197539754991e-01
  -4.75788400734055094699e-01
</dep>
<dep RP[5,1] frequency>
  -1.87919712738688238218e-01
  -2.09913602482466515875e-01
  -2.28118899312008349689e-01
  -2.41715534285079525212e-01
  -2.50085227083155836603e-01
  -2.52754532544369858726e-01
  -2.49380237727820641691e-01
  -2.39770012353581252196e-01
  -2.23924454327719291147e-01
</dep>
<dep RP[5,2] frequency>
  -4.19115857857260687425e-01
  -4.80133090978192456078e-01
  -5.27088057707820856201e-01
  -5.61234978198791201187e-01
  -5.83665355752720493854e-01
  -5.95173775609233679518e-01
  -5.96165703178157979636e-01
  -5.86583698323674407327e-01
  -5.65864510860413449933e-01
</dep>
<dep RP[5,3] frequency>
  +2.35904665828952003759e-01
  +2.44662743745053035127e-01
  +2.49580018507353729174e-01
  +2.51271576269489149702e-01
  +2.49918637556016454138e-01
  +2.45362214716913662471e-01
  +2.37173814810787891849e-01
  +2.24714213845594784624e-01
  +2.07192801272128024337e-01
</dep>
<dep RP[5,4] frequency>
  +3.38138730046764923731e-01
  +4.30351552309700902121e-01
  +5.04161441535486143373e-01
  +5.55863326610568475594e-01
  +5.83644258041710495277e-01
  +5.87409512071102923869e-01
  +5.68502048139044369179e-01
  +5.29372065779350919890e-01
  +4.73239344917863236084e-01
</dep>
<dep RP[5,5] frequency>
  -1.31809735321154142262e-01
  -1.79267349473941683957e-01
  -1.99542579219994353767e-01
  -1.94131298386391981659e-01
  -1.65945603688237519613e-01
  -1.18887060560677354504e-01
  -5.74127931994907886315e-02
  +1.38900046382548492119e-02
  +9.06905161000502585411e-02
</dep>
<dep RP[5,6] frequency>
  -2.72083227387476866976e-01
  -2.19630389563220229654e-01
  -1.54462677890521149493e-01
  -7.94571518494056883153e-02
  +1.59019035657659898314e-03
  +8.40892769327079014907e-02
  +1.62922776228893562145e-01
  +2.32812324780264506829e-01
  +2.88726682996794714597e-01
</dep>
<dep RP[5,7] frequency>
  +2.69785894694293190699e-02
  +1.37091293045717918520e-02
  +5.33989508904805787459e-03
  +1.12258633725305367879e-03
  +3.56771588624774441123e-07
  +8.03366582790523975355e-04
  +2.39344314017540804596e-03
  +3.79483604165241610734e-03
  +4.32944916883810926311e-03
</dep>
<dep RP[5,8] frequency>
  -7.28126253049737881540e-03
  +1.09412133495684349427e-03
  +5.46711426868939920354e-03
  +4.87277262911295361292e-03
  -1.30466238360715802713e-04
  -7.76849102161605853389e-03
  -1.55144296453936791913e-02
  -2.06223772714400066519e-02
  -2.06969169719437851018e-02
</dep>
<dep RP[6,1] frequency>
  -1.18748605675336460497e-01
  -1.56992803884234061185e-01
  -1.91804450884804633670e-01
  -2.23026417618258754327e-01
  -2.50500551443455399259e-01
  -2.74085043264544914177e-01
  -2.93673334966162158377e-01
  -3.09199366482866333516e-01
  -3.20614282681392692709e-01
</dep>
<dep RP[6,2] frequency>
  +1.89894942960402213217e-01
  +2.15251794077926522641e-01
  +2.33287563615812820750e-01
  +2.44641231128381819726e-01
  +2.50079777400520841812e-01
  +2.50368771962737379777e-01
  +2.46175980424510970623e-01
  +2.37966154604378643533e-01
  +2.25863899698560910423e-01
</dep>
<dep RP[6,3] frequency>
  +5.80052087615883990579e-02
  +1.16299234468713333368e-01
  +1.68082938313851126821e-01
  +2.12972781664334559482e-01
  +2.50666949233482372339e-01
  +2.80982423855024976422e-01
  +3.03918140917271095702e-01
  +3.19732312149467789997e-01
  +3.29018709516640361912e-01
</dep>
<dep RP[6,4] frequency>
  -1.72246512205423363273e-01
  -1.94470988461973304240e-01
  -2.16321430846828643979e-01
  -2.35723483280103340842e-01
  -2.50246413517332622067e-01
  -2.57378841611879294327e-01
  -2.54842211336912483066e-01
  -2.40919702574517252680e-01
  -2.14775395231605908952e-01
</dep>
<dep RP[6,5] frequency>
  -2.72083227387476811465e-01
  -2.19630389563220229654e-01
  -1.54462677890521149493e-01
  -7.94571518494056744375e-02
  +1.59019035657660505467e-03
  +8.40892769327079014907e-02
  +1.62922776228893562145e-01
  +2.32812324780264479074e-01
  +2.88726682996794714597e-01
</dep>
<dep RP[6,6] frequency>
  +7.48701808001675100934e-02
  +1.87931673407502414230e-01
  +3.01085942024249653137e-01
  +4.07857020532472747121e-01
  +5.01591812563457306595e-01
  +5.75919320300410930713e-01
  +6.25257874267502455901e-01
  +6.45307018564145185024e-01
  +6.33442229914361720766e-01
</dep>
<dep RP[6,7] frequency>
  +1.96440612162875755109e-02
  +1.86359032111066379167e-02
  +1.44923932544638572190e-02
  +7.93477258248275613139e-03
  -1.67203312771976170259e-04
  -8.82603373653161743517e-03
  -1.69770506484432925909e-02
  -2.35439747875095251040e-02
  -2.75436573292681709246e-02
</dep>
<dep RP[6,8] frequency>
  -3.22018024087248333487e-02
  -1.71257020996156139603e-02
  -6.91871033223976500404e-03
  -1.49761694678553214377e-03
  -4.92955254421945099352e-07
  -1.12467788375624627717e-03
  -3.45040554311826924705e-03
  -5.75035581821843957973e-03
  -7.26210872230822340745e-03
</dep>
<dep RP[7,1] frequency>
  -1.82729274758107879117e-01
  -2.03313754149300585095e-01
  -2.21105523144954935200e-01
  -2.36623645477877175836e-01
  -2.50250354078175196726e-01
  -2.62272113195478606684e-01
  -2.72912101696139108853e-01
  -2.82355733411584652881e-01
  -2.90767191476764219615e-01
</dep>
<dep RP[7,2] frequency>
  -2.14606648151190237961e-01
  -2.35788470981884462629e-01
  -2.47747096770179364711e-01
  -2.51883838413495431130e-01
  -2.49940710235875995782e-01
  -2.43802474801446511510e-01
  -2.35342052576212018566e-01
  -2.26262514288820437702e-01
  -2.17911194443383499086e-01
</dep>
<dep RP[7,3] frequency>
  -1.18344875498315613149e-01
  -1.59688318595033379443e-01
  -1.95735028431519242353e-01
  -2.26085116208512959535e-01
  -2.50416528012247341373e-01
  -2.68478538715553882721e-01
  -2.80114869887272799343e-01
  -2.85315104575367073370e-01
  -2.84288993864595662675e-01
</dep>
<dep RP[7,4] frequency>
  -2.01002917649989037985e-01
  -2.19369332413961337647e-01
  -2.33660020524831452127e-01
  -2.43903794021110342793e-01
  -2.50107807029776585406e-01
  -2.52273822471709097126e-01
  -2.50396790601942365040e-01
  -2.44448434149619087119e-01
  -2.34357599586040493689e-01
</dep>
<dep RP[7,5] frequency>
  +2.69785894694293329477e-02
  +1.37091293045717779742e-02
  +5.33989508904805787459e-03
  +1.12258633725306755657e-03
  +3.56771588603198817891e-07
  +8.03366582790558669824e-04
  +2.39344314017542886264e-03
  +3.79483604165241003581e-03
  +4.32944916883811620201e-03
</dep>
<dep RP[7,6] frequency>
  +1.96440612162876240832e-02
  +1.86359032111066552639e-02
  +1.44923932544636490521e-02
  +7.93477258248281164255e-03
  -1.67203312771972700812e-04
  -8.82603373653165212964e-03
  -1.69770506484432821825e-02
  -2.35439747875094834706e-02
  -2.75436573292682090885e-02
</dep>
<dep RP[7,7] frequency>
  +2.46091876951102211946e-01
  +3.09876517189057232304e-01
  +3.74963437879479055681e-01
  +4.39372382919695381176e-01
  +5.01093290069955288324e-01
  +5.58109771821638345202e-01
  +6.08433735111352125280e-01
  +6.50166645728655678838e-01
  +6.81596437724253934043e-01
</dep>
<dep RP[7,8] frequency>
  +2.72121154368758277897e-01
  +2.14162487065958639931e-01
  +1.47466890961516300385e-01
  +7.46784090943161393827e-02
  -1.47859190323249619498e-03
  -7.80381892467488236242e-02
  -1.51725372165771477118e-01
  -2.18970369570254813629e-01
  -2.75998641947746981007e-01
</dep>
<dep RP[8,1] frequency>
  +1.82530261636633966971e-01
  +2.08657266554478804110e-01
  +2.28724434561574374580e-01
  +2.42602123219175430657e-01
  +2.50057192673367012503e-01
  +2.50777261425883857271e-01
  +2.44406776662939750899e-01
  +2.30593160988424722424e-01
  +2.09039015735363098436e-01
</dep>
<dep RP[8,2] frequency>
  -3.76775064320439667664e-01
  -4.49860495950720917779e-01
  -5.08678898595032458196e-01
  -5.53416953844472647717e-01
  -5.83785234220994930787e-01
  -5.98977552965520576578e-01
  -5.97796664896351415130e-01
  -5.78880719193062942551e-01
  -5.41011423986947792564e-01
</dep>
<dep RP[8,3] frequency>
  +2.14613708708011996507e-01
  +2.33671034576139441397e-01
  +2.45646012897777293871e-01
  +2.51012890362824259149e-01
  +2.49890144202893127456e-01
  +2.42157395559692845133e-01
  +2.27573290405099326605e-01
  +2.05895953535918774246e-01
  +1.77017412412073582573e-01
</dep>
<dep RP[8,4] frequency>
  -3.09096082575350428190e-01
  -4.10014940624094936794e-01
  -4.91054763795822024619e-01
  -5.49527777799346028864e-01
  -5.83764782471343557368e-01
  -5.93068659455743718567e-01
  -5.77576937917945953949e-01
  -5.38073955197539754991e-01
  -4.75788400734055094699e-01
</dep>
<dep RP[8,5] frequency>
  -7.28126253049737881540e-03
  +1.09412133495684349427e-03
  +5.46711426868945471469e-03
  +4.87277262911278707946e-03
  -1.30466238360715802713e-04
  -7.76849102161607241168e-03
  -1.55144296453936236801e-02
  -2.06223772714400066519e-02
  -2.06969169719437851018e-02
</dep>
<dep RP[8,6] frequency>
  -3.22018024087248472265e-02
  -1.71257020996156139603e-02
  -6.91871033223976500404e-03
  -1.49761694678547663262e-03
  -4.92955254434955525422e-07
  -1.12467788375623933828e-03
  -3.45040554311825536926e-03
  -5.75035581821842049777e-03
  -7.26210872230819565187e-03
</dep>
<dep RP[8,7] frequency>
  +2.72121154368758277897e-01
  +2.14162487065958639931e-01
  +1.47466890961516272629e-01
  +7.46784090943161671383e-02
  -1.47859190323249879706e-03
  -7.80381892467488236242e-02
  -1.51725372165771477118e-01
  -2.18970369570254758118e-01
  -2.75998641947746981007e-01
</dep>
<dep RP[8,8] frequency>
  -1.55458143331165699053e-01
  -1.96862030744693827788e-01
  -2.10927205763614289413e-01
  -1.99406676743278055142e-01
  -1.65853064251059695300e-01
  -1.15081521235663938874e-01
  -5.27515069444932926945e-02
  +1.49731810013002189508e-02
  +8.17027588949521266226e-02
</dep>
<dep IP[1,1] frequency>
  -3.99357719640315855791e-01
  -3.86327429471268246619e-01
  -3.74135605371903656735e-01
  -3.63067382599042531854e-01
  -3.53323108521289286355e-01
  -3.45060236134853093315e-01
  -3.38426616940764479757e-01
  -3.33588035927344428444e-01
  -3.30748461690297201887e-01
</dep>
<dep IP[1,2] frequency>
  -7.84710265335842455103e-03
  -8.93451127443545961571e-03
  -7.62578116828138002914e-03
