<Qucs Dataset 0.0.19>
<indep frequency 9>
  +2.10000000000000000000e+09
  +2.15000000000000000000e+09
  +2.20000000000000000000e+09
  +2.25000000000000000000e+09
  +2.30000000000000000000e+09
  +2.35000000000000000000e+09
  +2.40000000000000000000e+09
  +2.45000000000000000000e+09
  +2.50000000000000000000e+09
</indep>
<dep RPZ[1,1] frequency>
  +1.05196194731812926556e-14
  +9.48335845045000158299e-15
  +5.96635134299834528842e-16
  +5.74653839878261642488e-15
  +2.78421551775033795491e-14
  +9.56186307338418939223e-15
  +3.41024082026115932784e-14
  +2.88897012397814608983e-14
  +1.03751709669823853196e-13
</dep>
<dep RPZ[1,2] frequency>
  +2.63775533058874202371e-15
  +2.99573641116864289879e-14
  -9.67176954549205421842e-15
  +9.16933995871324561287e-15
  -1.38350267089379530720e-12
  +1.36205520790817481970e-14
  +3.20298861571490111332e-15
  -1.83386799174264912257e-14
  +4.32089444629774864351e-14
</dep>
<dep RPZ[1,3] frequency>
  +2.41794238637301355461e-15
  +4.96149216944072886617e-15
  -2.38654053719933811537e-15
  -2.27663406509147378221e-16
  -2.76017347697674284959e-15
  -4.47476350724875876910e-15
  -3.07738121902019896193e-15
  -2.88897012397814593206e-15
  -2.28605461984357639426e-14
</dep>
<dep RPZ[1,4] frequency>
  +1.69569985537847707159e-15
  +6.40597723142980222663e-15
  +1.07394324173970207303e-14
  -1.73338207438688771701e-14
  -2.37460783451334129068e-13
  +9.99756373066893828104e-15
  -4.99917438844914002435e-14
  -3.74310042150211993041e-14
  -7.43595788432635915804e-14
</dep>
<dep RPZ[1,5] frequency>
  -6.64934156252578727517e-15
  -1.01270963585103488763e-14
  +8.75326545716204564852e-15
  -8.92205039647055093721e-15
  +5.68975379707179743080e-13
  -5.51102452998005063058e-15
  -3.93936197883759150454e-14
  -3.09072700491901129970e-14
  -1.48020466542412896355e-13
</dep>
<dep RPZ[1,6] frequency>
  +1.57401768983048454732e-15
  +1.02134514437379559397e-14
  -8.01139677043396162155e-15
  +9.10261102921918589613e-15
  -6.02002979890564674683e-13
  -7.19494869191839862360e-15
  -1.59325132244936073414e-14
  -5.05098743958570426243e-14
  -1.52589435597182665664e-13
</dep>
<dep RPZ[1,7] frequency>
  -1.12104601550021538966e-14
  -2.80104494629185454442e-14
  -1.50728876033642404172e-15
  -4.01943669423046411126e-15
  +7.89944917812980946163e-13
  -8.91812516532384209895e-15
  -1.23095248760807958477e-14
  -3.41652119009589473123e-14
  -1.00737132149151011029e-13
</dep>
<dep RPZ[1,8] frequency>
  +2.00971834711523205563e-15
  -1.46960654132801339631e-14
  -6.87651431514159619652e-16
  +1.05196194731812918668e-15
  +8.11737801139511647353e-13
  -1.12418620041758293358e-14
  +3.54212858679059648819e-14
  +5.79050098762576298645e-14
  +6.50646314878556363220e-14
</dep>
<dep RPZ[2,1] frequency>
  +9.04373256201854385591e-15
  +2.51214793389404018787e-14
  +1.50728876033642404172e-15
  -2.71311976860556331455e-14
  -4.96902861324241084537e-13
  +3.21554935538437128901e-14
  -1.05510213223549680949e-14
  -2.00971834711523189786e-14
  +3.01457752067284784679e-14
</dep>
<dep RPZ[2,2] frequency>
  +1.20583100826913923338e-14
  +1.66806622810564261406e-13
  -6.63207054548026538915e-14
  -6.51148744465335220735e-13
  +6.05269286262710994436e-09
  +4.52186628100927208573e-14
  +2.48702645455509958404e-13
  +8.54130297523973588145e-14
  +1.92932961323062277341e-13
</dep>
<dep RPZ[2,3] frequency>
  +8.03887338846092822253e-15
  +4.01943669423046411126e-15
  -6.02915504134569616690e-15
  -3.01457752067284784679e-14
  +1.04354625173958424153e-12
  -2.21069018182675534008e-14
  -4.77308107439867623073e-14
  -4.01943669423046411126e-15
  -9.09397552069642487424e-14
</dep>
<dep RPZ[2,4] frequency>
  -2.00971834711523205563e-15
  +3.41652119009589473123e-14
  -2.41166201653827846676e-14
  -2.29107891571136459075e-13
  -2.07081378486753524644e-11
  -1.31510944339352985660e-13
  -1.10534509091337767004e-14
  +8.03887338846092822253e-15
  -6.43109871076874257802e-14
</dep>
<dep RPZ[2,5] frequency>
  -2.76336272728344417510e-15
  -8.49106001656185517866e-14
  +2.88897012397814608983e-14
  +2.00469405124744408002e-13
  -3.03600061582350980221e-09
  -1.38168136364172210333e-13
  -1.45076543182380825898e-13
  -2.06624167562784800404e-14
  -2.36267513182734490776e-13
</dep>
<dep RPZ[2,6] frequency>
  +2.00971834711523205563e-15
  +5.36343583886377575061e-14
  +8.41569557854503349340e-15
  -2.01474264298302022057e-13
  +3.03950204761377121763e-09
  +4.01943669423046411126e-15
  +7.16590198143274943395e-14
  +3.71169857232844417563e-14
  -1.31039916601747874581e-13
</dep>
<dep RPZ[2,7] frequency>
  -1.90923242975947049229e-14
  -1.42690002645181473583e-13
  +3.81846485951894098459e-14
  +4.50176909753812005705e-13
  -3.01464183165995578673e-09
  +6.83304238019178946246e-14
  -1.40680284298066251783e-14
  +2.51214793389404018787e-14
  +8.64178889259549728701e-14
</dep>
<dep RPZ[2,8] frequency>
  +4.01943669423046411126e-15
  -8.49106001656185517866e-14
  +3.73289482052067505767e-14
  +4.15006838679295412783e-13
  -3.01682840522161703213e-09
  +3.21554935538437128901e-14
  -1.58767749422103323717e-13
  -7.03401421490331227360e-14
  -1.22090389587250334955e-13
</dep>
<dep RPZ[3,1] frequency>
  +6.28036983473509968081e-16
  +4.33345518596721929252e-15
  -2.51214793389403987232e-15
  +5.58952915291423922868e-15
  -3.00476444280607441008e-15
  -3.29719416323592743103e-15
  -5.52672545456688835020e-15
  -2.26093314050463596398e-15
  -2.41166201653827846676e-14
</dep>
<dep RPZ[3,2] frequency>
  +1.02998065289655645809e-14
  +1.13046657025231798199e-15
  +3.51700710745165629457e-15
  +3.39139971075695414318e-15
  +6.40472115746285565082e-13
  -1.55910181147298847703e-14
  -3.66145561365056347284e-14
  -1.90923242975947049229e-14
  -9.64664806615311386703e-14
</dep>
<dep RPZ[3,3] frequency>
  +4.83588477274602710921e-15
  +3.83102559918841147583e-15
  +3.61121265497268261229e-15
  -5.33831435952483492590e-15
  +1.63054101834310037740e-14
  +1.06766287190496710351e-15
  +1.57637282851851020527e-14
  +3.47932488844324560971e-14
  +9.57128362813629281286e-14
</dep>
<dep RPZ[3,4] frequency>
  +4.27065148761986841404e-15
  +1.50728876033642392339e-14
  -8.41569557854503349340e-15
  +2.65031607025821212052e-14
  -1.12343255603741463469e-12
  +1.84956891632948699997e-14
  +3.64261450414635805153e-15
  +1.50728876033642404172e-15
  +3.31603527274013269458e-14
</dep>
<dep RPZ[3,5] frequency>
  -6.59438832647185505928e-16
  +9.70317139466572965766e-15
  -3.15588584195438795446e-15
  +5.93494949382466984918e-15
  -8.78148050929848685364e-13
  +2.21932569034951604643e-14
  +3.40553054288510809084e-14
  +2.91095141839971873953e-14
  +1.71815217753765496332e-13
</dep>
<dep RPZ[3,6] frequency>
  +8.71401314569495115225e-16
  -1.05745727092352242799e-14
  +5.03999679237491825313e-15
  -2.08508278513205326758e-14
  +8.98942760242118615216e-13
  -2.78691411416370075453e-15
  +9.57756399797102790071e-15
  +5.60208989258370908883e-14
  +1.87029413678411275831e-13
</dep>
<dep RPZ[3,7] frequency>
  -7.53644380168211961697e-15
  -1.28119544628596044533e-14
  +5.40111805787218580438e-15
  -1.50728876033642392339e-14
  +2.29610321157915240859e-13
  -4.27065148761986841404e-15
  +3.26579231406225199179e-15
  -3.66773598348529824515e-14
  -1.35153558843499368166e-13
</dep>
<dep RPZ[3,8] frequency>
  -8.60410667358708770656e-15
  -3.79962375001473524773e-15
  +3.05481113992661998649e-15
  -1.38482154855908955259e-14
  +2.42045453430690758975e-13
  -2.13532574380993420702e-15
  +2.43678349587721881815e-14
  +2.11020426447099361897e-14
  +1.02746850496266239140e-13
</dep>
<dep RPZ[4,1] frequency>
  -5.52672545456688835020e-15
  +5.52672545456688835020e-15
  -7.03401421490331258914e-15
  -1.50728876033642392339e-14
  +3.19545217191321875546e-13
  +1.55753171901430494172e-14
  -4.52186628100927208573e-14
  -2.81360568596132503566e-14
  -7.53644380168212056361e-14
</dep>
<dep RPZ[4,2] frequency>
  +6.02915504134569616690e-15
  +3.21554935538437128901e-14
  -5.02429586778808037574e-14
  -1.92932961323062277341e-13
  +1.57947784336480317918e-10
  -2.02981553058638443141e-13
  -1.60777467769218564451e-14
  +1.00485917355761594893e-14
  -8.34033114052821307032e-14
</dep>
<dep RPZ[4,3] frequency>
  +4.52186628100927192796e-15
  +1.10534509091337767004e-14
  -3.01457752067284808345e-15
  -6.02915504134569616690e-15
  +5.38604517026882143578e-13
  +4.01943669423046411126e-15
  -2.51214793389403987232e-15
  +0.00000000000000000000e+00
  +3.56725006612953683958e-14
</dep>
<dep RPZ[4,4] frequency>
  +6.43109871076874257802e-14
  +5.02429586778808037574e-14
  -3.41652119009589473123e-14
  -5.54682263803804069442e-13
  +3.36944554753306742298e-09
  +4.28321222728933811642e-13
  +1.34651129256720535894e-13
  +4.82332403307655693352e-14
  +8.64178889259549728701e-14
</dep>
<dep RPZ[4,5] frequency>
  +3.51700710745165613680e-14
  +2.71311976860556331455e-14
  +0.00000000000000000000e+00
  -1.81879510413928497485e-13
  +1.60549678755312722333e-09
  +3.09999055042524567261e-13
  +9.82877879136043173017e-14
  +4.79820255373761658212e-14
  +1.79147549535818742160e-13
</dep>
<dep RPZ[4,6] frequency>
  -2.12904537397519888251e-14
  -2.13532574380993420702e-15
  -1.80874651240370877118e-14
  +1.79744184670118561306e-13
  -1.60833570312952258499e-09
  -3.06356440538378209998e-13
  -3.12762417769808005914e-14
  +3.19356806096279863932e-14
  +1.32484401663736929009e-13
</dep>
<dep RPZ[4,7] frequency>
  -4.52186628100927208573e-14
  -5.72769728927841147688e-14
  +4.62235219836503349129e-14
  +3.41652119009589435258e-13
  -1.76495073018337367424e-09
  -1.48719157686527183161e-13
  -2.00971834711523205563e-15
  +3.31603527274013269458e-14
  +6.02915504134569569358e-14
</dep>
<dep RPZ[4,8] frequency>
  -3.66773598348529824515e-14
  -5.62721137192265007131e-14
  +6.81263117822889971698e-14
  +3.54715288265838468469e-13
  -1.76392175438965062575e-09
  -9.64664806615311386703e-14
  -8.94324664466278276589e-14
  -5.92866912398993428801e-14
  -2.31117609918251674565e-14
</dep>
<dep RPZ[5,1] frequency>
  -1.02998065289655645809e-14
  -8.41569557854503349340e-15
  -3.76822190084105980849e-15
  +1.34399914463331148158e-14
  -1.58265319835324529311e-14
  -1.72082133471741754131e-14
  -4.17644594009884130746e-14
  -2.38026016736460302752e-14
  -1.46897850434454004529e-13
</dep>
<dep RPZ[5,2] frequency>
  -4.01943669423046411126e-15
  -8.29008818185033236753e-14
  -2.51214793389403987232e-15
  +2.18556870248781486247e-13
  -2.94627925236448384156e-09
  -1.55941582996472531030e-13
  -1.53931864649357302919e-13
  -3.68029672315476842084e-14
  -2.47195356695173562564e-13
</dep>
<dep RPZ[5,3] frequency>
  +4.77308107439867623073e-15
  +5.90354764465099440994e-15
  -8.79251776862914034200e-15
  -5.02429586778807974465e-15
  -1.02344906826843196042e-12
  +1.84014836157738421042e-14
  +3.42908192976536490693e-14
  +2.78848420662238436872e-14
  +1.69444378141153004613e-13
</dep>
<dep RPZ[5,4] frequency>
  +2.00971834711523189786e-14
  +5.52672545456688835020e-15
  -1.20583100826913923338e-14
  -1.42690002645181473583e-13
  +1.69371023421483297525e-09
  +2.86102247821357474380e-13
  +1.08901612934306631542e-13
  +5.28807140084695406535e-14
  +1.56632423678293387538e-13
</dep>
<dep RPZ[5,5] frequency>
  +3.09622232852440430436e-14
  +7.80649970457572902552e-14
  +1.16814878926072870629e-14
  -2.02070899432601841203e-13
  +2.31946028381672237244e-09
  +2.52973296943129830763e-13
  +1.88662309835442404982e-13
  +7.30917291828764411852e-14
  +4.87839502606489007534e-13
</dep>
<dep RPZ[5,6] frequency>
  -1.80874651240370877118e-14
  -3.95977318080048061894e-14
  -1.90609224484210279060e-14
  +1.84203247252780483144e-13
  -2.32246073050526715397e-09
  -1.72411852888065340721e-13
  -3.10721297573519094475e-14
  +7.68599510837174938939e-14
  +4.12690952302736857422e-13
</dep>
<dep RPZ[5,7] frequency>
  -5.02429586778807974465e-15
  +5.70257580993947112549e-14
  +7.53644380168211961697e-15
  -5.32575361985536522353e-14
  +6.25006328206060198561e-10
  -1.06515072397107304471e-13
  +1.48216728099748357200e-14
  +5.52672545456688835020e-15
  -5.67745433060053077410e-14
</dep>
<dep RPZ[5,8] frequency>
  -1.55753171901430494172e-14
  +2.58751237191086124204e-14
  +1.25921415186438763786e-14
  -3.45420340910430525832e-14
  +6.26003148506229356551e-10
  -4.82332403307655693352e-14
  +1.79618577273423859549e-14
  -1.29375618595543062102e-14
  +7.56784565085579631839e-14
</dep>
<dep RPZ[6,1] frequency>
  +5.21270696283013316895e-15
  +1.21211137810387432123e-14
  +7.28522900829271610306e-15
  -1.97203612810682137077e-14
  -3.47178844464156337808e-13
  +8.79251776862914034200e-15
  -2.19812944215728516439e-14
  -5.60208989258370908883e-14
  -1.57762890248545709662e-13
</dep>
<dep RPZ[6,2] frequency>
  +1.10534509091337767004e-14
  +4.39625888431457032877e-14
  +2.18556870248781498869e-14
  -2.13030144794214608941e-13
  +2.94856229240680696526e-09
  +5.47648249588900733188e-14
  +7.59924750002947081100e-14
  +1.38168136364172200866e-14
  -1.51733735207200025328e-13
</dep>
<dep RPZ[6,3] frequency>
  -5.02429586778808013908e-16
  -6.28036983473510046967e-15
  -2.88897012397814593206e-15
  -6.53158462812450398359e-15
  +8.11800604837859089739e-13
  +4.52186628100927192796e-15
  +1.88411095042052990424e-15
  +6.20500539671827941550e-14
  +1.78111288513087432154e-13
</dep>
<dep RPZ[6,4] frequency>
  -2.11020426447099361897e-14
  +5.52672545456688835020e-15
  -7.53644380168211961697e-15
  +1.58265319835324516690e-13
  -1.69800299260427104999e-09
  -2.44997227253016259729e-13
  -7.28522900829271610306e-15
  +3.49188562811271578541e-14
  +1.20583100826913913872e-13
</dep>
<dep RPZ[6,5] frequency>
  -2.07252204546258309188e-14
  -3.83102559918841116028e-14
  -1.45076543182380813276e-14
  +1.94534455630919735786e-13
  -2.32253618914883147089e-09
  -1.68627930062637440038e-13
  -1.42250376756750007968e-14
  +9.42997530685475317851e-14
  +4.25636364624584587619e-13
</dep>
<dep RPZ[6,6] frequency>
  +3.84986670869261610828e-14
  +3.49345572057139932071e-14
  +1.00485917355761594893e-14
  -2.13579677154753922028e-13
  +2.32603531290317891316e-09
  +1.24900855088294292289e-13
  +1.10283294297948357179e-13
  +2.25543781689924278578e-13
  +5.25258731128070124499e-13
</dep>
<dep RPZ[6,7] frequency>
  -2.76336272728344417510e-15
  -1.88411095042053014090e-14
  -3.21554935538437128901e-14
  +3.81846485951894098459e-14
  -6.24170285373660286285e-10
  +9.04373256201854417146e-14
  +1.65801763637006634729e-14
  -1.00485917355761602782e-15
  -7.68717267771576267196e-14
</dep>
<dep RPZ[6,8] frequency>
  +6.71999572316655740789e-15
  -1.57009245868377511742e-14
  -1.89205954349261664278e-14
  +1.13046657025231802143e-14
  -6.25199261167383334777e-10
  +8.99348960334066346867e-14
  -4.99917438844914002435e-14
  -4.67259515704291482517e-14
  +5.50160397522794768327e-14
</dep>
<dep RPZ[7,1] frequency>
  -1.13046657025231802143e-14
  -2.21069018182675534008e-14
  -1.50728876033642404172e-15
  +3.11506343802860988344e-14
  +1.18573382479798685760e-13
  -7.03401421490331258914e-15
  -1.60777467769218564451e-14
  -3.31603527274013269458e-14
  -9.24470439673006698259e-14
</dep>
<dep RPZ[7,2] frequency>
  -2.81360568596132503566e-14
  -1.32641410909605307783e-13
  +4.42138036365351068016e-14
  +3.81846485951894098459e-13
  -3.10249064004905683826e-09
  +9.69689102483099456982e-14
  -3.01457752067284784679e-14
  +1.60777467769218564451e-14
  +7.23498604961483508473e-14
</dep>
<dep RPZ[7,3] frequency>
  -1.08022361157443716088e-14
  -1.20583100826913923338e-14
  +1.80874651240370877118e-14
  +4.37113740497562997738e-14
  -1.17468037388885310299e-12
  +9.54616214879735246147e-15
  +8.03887338846092822253e-15
  -4.32089444629774864351e-14
  -1.32641410909605307783e-13
</dep>
<dep RPZ[7,4] frequency>
  -4.72283811572079552795e-14
  -5.12478178514384178130e-14
  +2.61263385124980159344e-14
  +3.65768739174972223081e-13
  -1.67427223836153439445e-09
  -1.73338207438688752768e-13
  +1.20583100826913923338e-14
  +2.21069018182675534008e-14
  +6.02915504134569569358e-14
</dep>
<dep RPZ[7,5] frequency>
  -2.51214793389403987232e-15
  +5.37599657853324592631e-14
  -6.90840681820861004332e-15
  -8.79251776862914034200e-15
  +7.13334831243138377694e-10
  -1.17694130702935779772e-13
  +2.62519459091927176913e-14
  +7.53644380168212020862e-16
  -5.13734252481331195700e-14
</dep>
<dep RPZ[7,6] frequency>
  -3.07738121902019896193e-15
  -2.04112019628890765264e-14
  -2.53098904339824545141e-14
  +2.95177382232549696831e-14
  -7.14205039287439208155e-10
  +1.33018233099689431987e-13
  +1.22467211777334449692e-14
  -1.68313911570900669868e-14
  -8.37801335953662422849e-14
</dep>
<dep RPZ[7,7] frequency>
  +8.49106001656185517866e-14
  +1.77860073719698041262e-13
  -4.22040852894198723794e-14
  -4.09982542811507342504e-13
  +2.38825281723108036454e-09
  +4.82332403307655693352e-14
  +2.41166201653827846676e-14
  +1.50728876033642411272e-13
  +4.34099162976890130327e-13
</dep>
<dep RPZ[7,8] frequency>
  +2.93921308265602679261e-14
  +8.71715333061231960337e-14
  -4.09087590110057601163e-14
  -3.43661837356704663369e-13
  +2.38908886006348027682e-09
  +4.01943669423046379572e-14
  +4.01943669423046411126e-15
  -7.23498604961483508473e-14
  -2.75331413554786806610e-13
</dep>
<dep RPZ[8,1] frequency>
  +2.51214793389403987232e-15
  -1.30631692562490079672e-14
  -3.01457752067284808345e-15
  +1.80874651240370877118e-14
  +1.65801763637006634729e-14
  -1.45704580165854322061e-14
  +2.91409160331708644122e-14
  +5.02429586778808037574e-14
  +7.43595788432635915804e-14
</dep>
<dep RPZ[8,2] frequency>
  -8.29008818185033173644e-15
  -7.58668676036000126639e-14
  +3.94407225621364274154e-14
  +4.42138036365351042773e-13
  -3.10667085421105639964e-09
  +8.44081705788397447588e-14
  -1.48719157686527183161e-13
  -7.43595788432635915804e-14
  -1.04505354049992063737e-13
</dep>
<dep RPZ[8,3] frequency>
  +0.00000000000000000000e+00
  -5.02429586778808013908e-16
  +1.50728876033642404172e-15
  +1.25607396694702009393e-14
  -1.10685237967371407850e-12
  +1.15558804959125837282e-14
  +3.66773598348529824515e-14
  +1.40680284298066251783e-14
  +9.94810581822039808373e-14
</dep>
<dep RPZ[8,4] frequency>
  -3.64261450414635789376e-14
  -4.11992261158622583237e-14
  +3.56725006612953683958e-14
  +3.89885359340355010904e-13
  -1.67510828119393430672e-09
  -1.46709439339411929806e-13
  -8.64178889259549728701e-14
  -6.23012687605721976689e-14
  -5.02429586778808037574e-14
</dep>
<dep RPZ[8,5] frequency>
  -1.90923242975947049229e-14
  +2.21069018182675534008e-14
  +1.25607396694701993616e-15
  -4.79820255373761658212e-14
  +7.15384241527609064185e-10
  -9.26982587606900733398e-14
  +2.33629757852145741258e-14
  -1.82130725207317894688e-14
  +5.69629544010473572210e-14
</dep>
<dep RPZ[8,6] frequency>
  +4.77308107439867623073e-15
  -1.77106429339529824410e-14
  +2.51214793389404006954e-16
  +2.02227908678470238910e-14
  -7.16098256774120145109e-10
  +1.57134853265072194566e-13
  -3.10878306819387448005e-14
  -5.58952915291423891314e-14
  +4.90810902584548109278e-14
</dep>
<dep RPZ[8,7] frequency>
  +2.61263385124980159344e-14
  +8.44081705788397447588e-14
  -4.01943669423046379572e-14
  -3.93904796034585467127e-13
  +2.39082525671538788237e-09
  +3.61749302480741754237e-14
  -4.01943669423046411126e-15
  -7.33547196697059649030e-14
  -2.80355709422574876888e-13
</dep>
<dep RPZ[8,8] frequency>
  +1.20583100826913923338e-14
  +7.23498604961483508473e-14
  -3.21554935538437128901e-14
  -3.93904796034585467127e-13
  +2.39140405559935708422e-09
  +2.81360568596132503566e-14
  +1.68816341157679489518e-13
  +1.24602537521144395338e-13
  +2.37146764959597371521e-13
</dep>
<dep IPZ[1,1] frequency>
  -8.78035814952835913516e+00
  -6.73787823182735223781e+00
  -4.66766850542106226385e+00
  -2.45724382864381141189e+00
  +5.34258993987530225733e-02
  +3.13518657520474119949e+00
  +7.33541371447607293277e+00
  +1.40431976204720001533e+01
  +2.85276002014104825832e+01
</dep>
<dep IPZ[1,2] frequency>
